Bus, BasekV, Node1, Magnitude1, Angle1, pu1, Node2, Magnitude2, Angle2, pu2, Node3, Magnitude3, Angle3, pu3
"SOURCEBUS_22000", 22, 1,      12701,    0.0,   0.99994, 2,    12700.8, -120.0,   0.99993, 3,    12700.9,  120.0,   0.99994
"3097596", 0.415, 1,    250.203,  -37.0,    1.0443, 2,    248.045, -158.6,    1.0352, 3,    247.528,   82.4,    1.0331
"3102384", 0.415, 1,    250.203,  -37.0,    1.0443, 2,    248.045, -158.6,    1.0352, 3,    247.528,   82.4,    1.0331
"3097174", 0.415, 1,    252.013,  -36.7,    1.0518, 2,    249.859, -158.2,    1.0428, 3,    249.915,   82.8,    1.0431
"3097838", 0.415, 1,    250.895,  -36.9,    1.0471, 2,    248.726, -158.4,    1.0381, 3,    248.454,   82.6,     1.037
"3097186", 0.415, 1,    253.603,  -36.4,    1.0584, 2,    250.886, -157.5,    1.0471, 3,    252.848,   83.3,    1.0553
"3097449", 0.415, 1,    253.677,  -36.4,    1.0588, 2,    251.199, -157.5,    1.0484, 3,    252.929,   83.3,    1.0556
"3097187", 0.415, 1,    253.378,  -36.5,    1.0575, 2,    250.677, -157.6,    1.0462, 3,    252.339,   83.3,    1.0532
"3097189", 0.415, 1,    252.226,  -36.6,    1.0527, 2,    250.214, -157.7,    1.0443, 3,    251.899,   83.0,    1.0513
"3097759", 0.415, 1,    251.101,  -36.8,     1.048, 2,    249.172, -157.8,    1.0399, 3,    250.991,   82.8,    1.0475
"3097190", 0.415, 1,    253.105,  -36.5,    1.0564, 2,    250.959, -157.9,    1.0474, 3,    251.302,   83.0,    1.0488
"3097210", 0.415, 1,    253.117,  -36.5,    1.0564, 2,    250.979, -157.9,    1.0475, 3,    251.338,   83.0,     1.049
"3097332", 0.415, 1,    254.287,  -36.2,    1.0613, 2,    252.263, -157.5,    1.0528, 3,    252.977,   83.3,    1.0558
"3097408", 0.415, 1,    256.017,  -35.8,    1.0685, 2,    254.143, -157.0,    1.0607, 3,    255.307,   83.7,    1.0656
"3097338", 0.415, 1,    250.066,  -37.0,    1.0437, 2,    248.235, -158.0,     1.036, 3,    250.214,   82.7,    1.0443
"3097343", 0.415, 1,    249.717,  -37.1,    1.0422, 2,    247.955, -158.0,    1.0349, 3,    250.048,   82.6,    1.0436
"3098447", 0.415, 1,    254.668,  -36.2,    1.0629, 2,    252.649, -157.3,    1.0545, 3,    254.035,   83.4,    1.0602
"3099086", 0.415, 1,    253.354,  -36.5,    1.0574, 2,    250.603, -157.6,    1.0459, 3,     252.29,   83.3,     1.053
"3097742", 0.415, 1,    253.521,  -36.4,    1.0581, 2,    251.042, -157.5,    1.0478, 3,    252.774,   83.3,     1.055
"3099104", 0.415, 1,    253.616,  -36.4,    1.0585, 2,    251.138, -157.5,    1.0482, 3,    252.869,   83.3,    1.0554
"3097756", 0.415, 1,    252.543,  -36.6,     1.054, 2,    249.886, -158.1,    1.0429, 3,    250.421,   83.0,    1.0452
"3099120", 0.415, 1,     252.53,  -36.6,     1.054, 2,    249.872, -158.1,    1.0429, 3,    250.408,   83.0,    1.0451
"3099124", 0.415, 1,    250.983,  -36.8,    1.0475, 2,    249.055, -157.8,    1.0395, 3,    250.875,   82.8,    1.0471
"3099125", 0.415, 1,    251.023,  -36.8,    1.0477, 2,    249.095, -157.8,    1.0396, 3,    250.914,   82.8,    1.0472
"3099142", 0.415, 1,    253.302,  -36.4,    1.0572, 2,    251.097, -157.5,     1.048, 3,    252.844,   83.3,    1.0553
"3099157", 0.415, 1,    252.197,  -36.6,    1.0526, 2,    250.185, -157.7,    1.0442, 3,     251.87,   83.0,    1.0512
"3099200", 0.415, 1,    253.263,  -36.5,     1.057, 2,    250.424, -157.6,    1.0452, 3,     252.22,   83.3,    1.0527
"3099290", 0.415, 1,    250.795,  -36.9,    1.0467, 2,    248.626, -158.4,    1.0377, 3,    248.354,   82.6,    1.0365
"3099345", 0.415, 1,    250.846,  -36.9,    1.0469, 2,    248.586, -158.4,    1.0375, 3,    248.348,   82.6,    1.0365
"3099346", 0.415, 1,    250.895,  -36.9,    1.0471, 2,    248.726, -158.4,    1.0381, 3,    248.454,   82.6,     1.037
"3099366", 0.415, 1,    254.194,  -36.2,    1.0609, 2,    252.169, -157.5,    1.0525, 3,    252.885,   83.3,    1.0554
"3099387", 0.415, 1,    249.847,  -37.0,    1.0428, 2,    248.016, -158.0,    1.0351, 3,    249.997,   82.7,    1.0434
"3099414", 0.415, 1,    249.656,  -37.1,     1.042, 2,    247.894, -158.0,    1.0346, 3,    249.988,   82.6,    1.0434
"3099501", 0.415, 1,    252.041,  -36.6,    1.0519, 2,    250.028, -157.7,    1.0435, 3,    251.715,   83.0,    1.0506
"3099531", 0.415, 1,    249.498,  -37.1,    1.0413, 2,    247.737, -158.0,     1.034, 3,    249.832,   82.6,    1.0427
"3099538", 0.415, 1,    250.162,  -37.0,    1.0441, 2,    248.004, -158.6,    1.0351, 3,    247.487,   82.4,    1.0329
"3099539", 0.415, 1,    250.046,  -37.0,    1.0436, 2,    247.888, -158.6,    1.0346, 3,    247.372,   82.4,    1.0324
"3099542", 0.415, 1,     249.96,  -37.0,    1.0432, 2,    248.129, -158.0,    1.0356, 3,    250.109,   82.7,    1.0439
"3099543", 0.415, 1,    249.899,  -37.0,     1.043, 2,    248.068, -158.0,    1.0353, 3,    250.048,   82.7,    1.0436
"3099546", 0.415, 1,    249.657,  -37.1,     1.042, 2,    247.896, -158.0,    1.0346, 3,    249.989,   82.6,    1.0434
"3099563", 0.415, 1,    251.898,  -36.6,    1.0513, 2,    249.885, -157.7,    1.0429, 3,    251.573,   83.0,      1.05
"3097365", 0.415, 1,    249.949,  -37.0,    1.0432, 2,    247.835, -158.7,    1.0344, 3,    247.251,   82.4,    1.0319
"3099668", 0.415, 1,    249.874,  -37.0,    1.0429, 2,     247.76, -158.7,    1.0341, 3,    247.177,   82.4,    1.0316
"3099803", 0.415, 2,     250.92, -157.9,    1.0472, 3,    251.262,   83.0,    1.0487, 0, 0, 0, 0
"3099965", 0.415, 1,    254.252,  -36.2,    1.0612, 2,    252.227, -157.5,    1.0527, 3,    252.942,   83.3,    1.0557
"3100015", 0.415, 1,     249.73,  -37.0,    1.0423, 2,    247.621, -158.7,    1.0335, 3,    246.948,   82.4,    1.0307
"3100084", 0.415, 1,    250.888,  -36.9,    1.0471, 2,     248.72, -158.4,    1.0381, 3,    248.427,   82.6,    1.0368
"3100137", 0.415, 1,    250.003,  -37.0,    1.0434, 2,    248.172, -158.0,    1.0358, 3,    250.151,   82.7,     1.044
"3100190", 0.415, 1,    253.278,  -36.5,    1.0571, 2,    250.577, -157.6,    1.0458, 3,    252.239,   83.3,    1.0527
"3100286", 0.415, 1,     249.95,  -37.0,    1.0432, 2,    248.119, -158.0,    1.0356, 3,    250.099,   82.7,    1.0438
"3100319", 0.415, 1,    250.895,  -36.9,    1.0471, 2,    248.726, -158.4,    1.0381, 3,    248.454,   82.6,     1.037
"3100358", 0.415, 1,    250.143,  -37.0,     1.044, 2,    247.985, -158.6,     1.035, 3,    247.468,   82.4,    1.0328
"3098774", 0.415, 1,    253.781,  -36.3,    1.0592, 2,    251.773, -157.4,    1.0508, 3,     253.28,   83.3,    1.0571
"3100498", 0.415, 1,    253.677,  -36.4,    1.0588, 2,    251.199, -157.5,    1.0484, 3,    252.929,   83.3,    1.0556
"3100580", 0.415, 1,    250.374,  -36.9,     1.045, 2,    248.255, -158.4,    1.0361, 3,    247.936,   82.5,    1.0348
"3100604", 0.415, 1,    251.907,  -36.7,    1.0514, 2,    249.753, -158.2,    1.0424, 3,    249.811,   82.8,    1.0426
"3100619", 0.415, 1,    252.117,  -36.6,    1.0522, 2,    250.105, -157.7,    1.0438, 3,     251.79,   83.0,    1.0509
"3100772", 0.415, 1,    249.427,  -37.1,     1.041, 2,    247.876, -158.0,    1.0345, 3,    249.983,   82.6,    1.0433
"3100817", 0.415, 1,    253.255,  -36.4,     1.057, 2,    250.564, -157.6,    1.0458, 3,    252.046,   83.3,    1.0519
"3100829", 0.415, 1,    251.008,  -36.8,    1.0476, 2,    249.079, -157.8,    1.0396, 3,    250.899,   82.8,    1.0472
"3100861", 0.415, 1,    250.128,  -37.0,    1.0439, 2,    247.877, -158.6,    1.0345, 3,    247.332,   82.4,    1.0323
"3098562", 0.415, 1,    254.449,  -36.2,     1.062, 2,    252.548, -157.3,     1.054, 3,    253.881,   83.4,    1.0596
"3100868", 0.415, 1,    254.293,  -36.2,    1.0613, 2,    252.505, -157.3,    1.0539, 3,    253.845,   83.3,    1.0595
"3100950", 0.415, 1,    255.993,  -35.8,    1.0684, 2,    254.119, -157.0,    1.0606, 3,    255.283,   83.7,    1.0655
"3101027", 0.415, 1,    252.525,  -36.6,    1.0539, 2,    249.808, -158.1,    1.0426, 3,    250.401,   83.0,    1.0451
"3098457", 0.415, 1,    254.388,  -36.2,    1.0617, 2,    252.568, -157.3,    1.0541, 3,    253.794,   83.3,    1.0592
"3101128", 0.415, 1,    253.625,  -36.4,    1.0585, 2,    251.147, -157.5,    1.0482, 3,    252.877,   83.3,    1.0554
"3101179", 0.415, 1,    250.783,  -36.9,    1.0467, 2,    248.614, -158.4,    1.0376, 3,    248.342,   82.6,    1.0365
"3101202", 0.415, 1,    251.975,  -36.7,    1.0516, 2,    249.821, -158.2,    1.0427, 3,    249.878,   82.8,    1.0429
"3101348", 0.415, 1,    254.157,  -36.2,    1.0608, 2,    252.132, -157.5,    1.0523, 3,    252.847,   83.3,    1.0553
"3101349", 0.415, 1,    252.522,  -36.6,    1.0539, 2,    249.839, -158.1,    1.0427, 3,    250.366,   83.0,    1.0449
"3101477", 0.415, 1,    254.173,  -36.2,    1.0608, 2,    252.148, -157.5,    1.0524, 3,    252.864,   83.3,    1.0554
"3101502", 0.415, 1,    254.352,  -36.2,    1.0616, 2,    252.451, -157.3,    1.0536, 3,    253.784,   83.4,    1.0592
"3098762", 0.415, 1,    252.731,  -36.6,    1.0548, 2,    250.425, -158.0,    1.0452, 3,    250.776,   82.9,    1.0466
"3101599", 0.415, 1,    252.632,  -36.6,    1.0544, 2,    250.326, -158.0,    1.0448, 3,    250.678,   82.9,    1.0462
"3101600", 0.415, 1,    252.607,  -36.6,    1.0543, 2,    250.301, -158.0,    1.0447, 3,    250.653,   82.9,    1.0461
"3098766", 0.415, 1,    252.614,  -36.6,    1.0543, 2,    250.316, -158.0,    1.0447, 3,    250.674,   82.9,    1.0462
"3101601", 0.415, 1,     252.56,  -36.6,    1.0541, 2,    250.265, -158.1,    1.0445, 3,    250.627,   82.9,     1.046
"3102604", 0.415, 2,    248.303, -158.4,    1.0363, 0, 0, 0, 0, 0, 0, 0, 0
"3102607", 0.415, 2,    249.813, -158.1,    1.0426, 0, 0, 0, 0, 0, 0, 0, 0
"3102608", 0.415, 3,    250.334,   83.0,    1.0448, 0, 0, 0, 0, 0, 0, 0, 0
"3102628", 0.415, 2,    250.214, -158.1,    1.0443, 0, 0, 0, 0, 0, 0, 0, 0
"3102629", 0.415, 1,      252.5,  -36.6,    1.0538, 0, 0, 0, 0, 0, 0, 0, 0
"3102630", 0.415, 3,    250.425,   82.9,    1.0452, 0, 0, 0, 0, 0, 0, 0, 0
"3102642", 0.415, 2,    250.721, -157.5,    1.0464, 0, 0, 0, 0, 0, 0, 0, 0
"3102643", 0.415, 2,    250.183, -157.6,    1.0442, 0, 0, 0, 0, 0, 0, 0, 0
"3102644", 0.415, 3,    252.238,   83.3,    1.0527, 0, 0, 0, 0, 0, 0, 0, 0
"3102645", 0.415, 1,     253.14,  -36.4,    1.0565, 0, 0, 0, 0, 0, 0, 0, 0
"3102646", 0.415, 1,    253.211,  -36.4,    1.0568, 0, 0, 0, 0, 0, 0, 0, 0
"3102647", 0.415, 1,    249.327,  -37.1,    1.0406, 0, 0, 0, 0, 0, 0, 0, 0
"3102734", 0.415, 1,    254.158,  -36.2,    1.0608, 0, 0, 0, 0, 0, 0, 0, 0
"3102735", 0.415, 2,    250.054, -157.7,    1.0436, 0, 0, 0, 0, 0, 0, 0, 0
"3102736", 0.415, 1,    253.731,  -36.3,     1.059, 0, 0, 0, 0, 0, 0, 0, 0
"3102737", 0.415, 3,    248.318,   82.6,    1.0364, 0, 0, 0, 0, 0, 0, 0, 0
"3102738", 0.415, 3,    248.393,   82.6,    1.0367, 0, 0, 0, 0, 0, 0, 0, 0
"3102739", 0.415, 3,    246.851,   82.4,    1.0303, 0, 0, 0, 0, 0, 0, 0, 0
"3102740", 0.415, 2,    247.785, -158.6,    1.0342, 0, 0, 0, 0, 0, 0, 0, 0
"3102903", 0.415, 2,    249.322, -158.0,    1.0406, 0, 0, 0, 0, 0, 0, 0, 0
"3102909", 0.415, 3,    246.984,   82.4,    1.0308, 0, 0, 0, 0, 0, 0, 0, 0
"3103007", 0.415, 3,    251.896,   83.3,    1.0513, 0, 0, 0, 0, 0, 0, 0, 0
"3103127", 0.415, 3,    247.905,   82.5,    1.0347, 0, 0, 0, 0, 0, 0, 0, 0
"3103128", 0.415, 1,    250.219,  -36.9,    1.0443, 2,      248.1, -158.4,    1.0355, 3,    247.782,   82.6,    1.0341
"3103129", 0.415, 1,    250.331,  -36.9,    1.0448, 0, 0, 0, 0, 0, 0, 0, 0
"3103130", 0.415, 3,     247.88,   82.6,    1.0346, 0, 0, 0, 0, 0, 0, 0, 0
"3103131", 0.415, 1,    250.333,  -36.9,    1.0448, 0, 0, 0, 0, 0, 0, 0, 0
"3103132", 0.415, 2,    248.221, -158.4,     1.036, 0, 0, 0, 0, 0, 0, 0, 0
"3103169", 0.415, 3,    253.693,   83.3,    1.0588, 0, 0, 0, 0, 0, 0, 0, 0
"3103184", 0.415, 2,    250.583, -157.6,    1.0458, 0, 0, 0, 0, 0, 0, 0, 0
